 frequency       frequency       frequency       v(s11_in)       v(s11_in)       v(s11_out)      v(s11_out)      v(s22_out)      v(s22_out)      v(s22_in)       v(s22_in)      
 1.00000000e+06  1.00000000e+06  0.00000000e+00  9.99857301e-01 -5.81959466e-04 -7.40776203e-03 -4.18531872e-03  1.03526498e-01  7.39168911e-03  2.14590162e-12  1.21259195e-12 
 1.04712855e+06  1.04712855e+06  0.00000000e+00  9.99844995e-01 -6.05222908e-04 -8.44110039e-03 -4.37723347e-03  1.03532858e-01  7.74001470e-03  2.68115824e-12  1.39056926e-12 
 1.09647820e+06  1.09647820e+06  0.00000000e+00  9.99831762e-01 -6.29061928e-04 -9.59103939e-03 -4.53906265e-03  1.03539832e-01  8.10475066e-03  3.34033258e-12  1.58112849e-12 
 1.14815362e+06  1.14815362e+06  0.00000000e+00  9.99817553e-01 -6.53447448e-04 -1.08658869e-02 -4.66141489e-03  1.03547480e-01  8.48666949e-03  4.14944420e-12  1.78044474e-12 
 1.20226443e+06  1.20226443e+06  0.00000000e+00  9.99802325e-01 -6.78344902e-04 -1.22737946e-02 -4.73371251e-03  1.03555866e-01  8.88657995e-03  5.13930492e-12  1.98255198e-12 
 1.25892541e+06  1.25892541e+06  0.00000000e+00  9.99786034e-01 -7.03714088e-04 -1.38226375e-02 -4.74416627e-03  1.03565062e-01  9.30532876e-03  6.34625196e-12  2.17870057e-12 
 1.31825674e+06  1.31825674e+06  0.00000000e+00  9.99768641e-01 -7.29509133e-04 -1.55198860e-02 -4.67976663e-03  1.03575146e-01  9.74380236e-03  7.81296458e-12  2.35657321e-12 
 1.38038426e+06  1.38038426e+06  0.00000000e+00  9.99750109e-01 -7.55678578e-04 -1.73724742e-02 -4.52629322e-03  1.03586204e-01  1.02029288e-02  9.58936904e-12  2.49933547e-12 
 1.44543977e+06  1.44543977e+06  0.00000000e+00  9.99730408e-01 -7.82165601e-04 -1.93866674e-02 -4.26834413e-03  1.03598329e-01  1.06836796e-02  1.17336368e-11  2.58449482e-12 
 1.51356125e+06  1.51356125e+06  0.00000000e+00  9.99709514e-01 -8.08908415e-04 -2.15679302e-02 -3.88938620e-03  1.03611625e-01  1.11870717e-02  1.43132803e-11  2.58253903e-12 
 1.58489319e+06  1.58489319e+06  0.00000000e+00  9.99687409e-01 -8.35840845e-04 -2.39208004e-02 -3.37182721e-03  1.03626204e-01  1.17141700e-02  1.74063519e-11  2.45532194e-12 
 1.65958691e+06  1.65958691e+06  0.00000000e+00  9.99664085e-01 -8.62893095e-04 -2.64487728e-02 -2.69711020e-03  1.03642190e-01  1.22660888e-02  2.11027497e-11  2.15416134e-12 
 1.73780083e+06  1.73780083e+06  0.00000000e+00  9.99639540e-01 -8.89992731e-04 -2.91541956e-02 -1.84582966e-03  1.03659719e-01  1.28439948e-02  2.55056381e-11  1.61761050e-12 
 1.81970086e+06  1.81970086e+06  0.00000000e+00  9.99613785e-01 -9.17065856e-04 -3.20381863e-02 -7.97868354e-04  1.03678940e-01  1.34491092e-02  3.07329894e-11  7.68860859e-13 
 1.90546072e+06  1.90546072e+06  0.00000000e+00  9.99586840e-01 -9.44038490e-04 -3.51005696e-02  4.67447380e-04  1.03700015e-01  1.40827101e-02  3.69192583e-11 -4.87270988e-13 
 1.99526231e+06  1.99526231e+06  0.00000000e+00  9.99558735e-01 -9.70838113e-04 -3.83398448e-02  1.97117709e-03  1.03723124e-01  1.47461354e-02  4.42172010e-11 -2.26782388e-12 
 2.08929613e+06  2.08929613e+06  0.00000000e+00  9.99529512e-01 -9.97395367e-04 -4.17531838e-02  3.73458485e-03  1.03748464e-01  1.54407852e-02  5.27998612e-11 -4.71569916e-12 
 2.18776162e+06  2.18776162e+06  0.00000000e+00  9.99499224e-01 -1.02364585e-03 -4.53364671e-02  5.77895275e-03  1.03776248e-01  1.61681248e-02  6.28627469e-11 -8.00426103e-12 
 2.29086765e+06  2.29086765e+06  0.00000000e+00  9.99467935e-01 -1.04953194e-03 -4.90843579e-02  8.12539595e-03  1.03806713e-01  1.69296878e-02  7.46262326e-11 -1.23426080e-11 
 2.39883292e+06  2.39883292e+06  0.00000000e+00  9.99435718e-01 -1.07500469e-03 -5.29904168e-02  1.07946871e-02  1.03840117e-01  1.77270789e-02  8.83382330e-11 -1.79816065e-11 
 2.51188643e+06  2.51188643e+06  0.00000000e+00  9.99402655e-01 -1.10002548e-03 -5.70472579e-02  1.38070984e-02  1.03876743e-01  1.85619773e-02  1.04277205e-10 -2.52207963e-11 
 2.63026799e+06  2.63026799e+06  0.00000000e+00  9.99368836e-01 -1.12456772e-03 -6.12467429e-02  1.71822701e-02  1.03916903e-01  1.94361397e-02  1.22755549e-10 -3.44162974e-11 
 2.75422870e+06  2.75422870e+06  0.00000000e+00  9.99334356e-01 -1.14861816e-03 -6.55802114e-02  2.09391142e-02  1.03960936e-01  2.03514044e-02  1.44123495e-10 -4.59898786e-11 
 2.88403150e+06  2.88403150e+06  0.00000000e+00  9.99299314e-01 -1.17217802e-03 -7.00387395e-02  2.50957608e-02  1.04009217e-01  2.13096941e-02  1.68773584e-10 -6.04393790e-11 
 3.01995172e+06  3.01995172e+06  0.00000000e+00  9.99263809e-01 -1.19526370e-03 -7.46134218e-02  2.96695542e-02  1.04062155e-01  2.23130204e-02  1.97145855e-10 -7.83507182e-11 
 3.16227766e+06  3.16227766e+06  0.00000000e+00  9.99227942e-01 -1.21790722e-03 -7.92956653e-02  3.46771046e-02  1.04120199e-01  2.33634869e-02  2.29733897e-10 -1.00411778e-10 
 3.31131121e+06  3.31131121e+06  0.00000000e+00  9.99191807e-01 -1.24015612e-03 -8.40774880e-02  4.01343978e-02  1.04183840e-01  2.44632940e-02  2.67091905e-10 -1.27428499e-10 
 3.46736850e+06  3.46736850e+06  0.00000000e+00  9.99155496e-01 -1.26207303e-03 -8.89518095e-02  4.60569658e-02  1.04253619e-01  2.56147422e-02  3.09842942e-10 -1.60343611e-10 
 3.63078055e+06  3.63078055e+06  0.00000000e+00  9.99119090e-01 -1.28373482e-03 -9.39127242e-02  5.24601155e-02  1.04330127e-01  2.68202370e-02  3.58688602e-10 -2.00258484e-10 
 3.80189396e+06  3.80189396e+06  0.00000000e+00  9.99082661e-01 -1.30523137e-03 -9.89557471e-02  5.93592158e-02  1.04414011e-01  2.80822931e-02  4.14420287e-10 -2.48458709e-10 
 3.98107171e+06  3.98107171e+06  0.00000000e+00  9.99046269e-01 -1.32666401e-03 -1.04078022e-01  6.67700358e-02  1.04505984e-01  2.94035387e-02  4.77932356e-10 -3.06444107e-10 
 4.16869383e+06  4.16869383e+06  0.00000000e+00  9.99009961e-01 -1.34814365e-03 -1.09278488e-01  7.47091306e-02  1.04606824e-01  3.07867205e-02  5.50237399e-10 -3.75964011e-10 
 4.36515832e+06  4.36515832e+06  0.00000000e+00  9.98973767e-01 -1.36978876e-03 -1.14557988e-01  8.31942669e-02  1.04717385e-01  3.22347082e-02  6.32483920e-10 -4.59058830e-10 
 4.57088190e+06  4.57088190e+06  0.00000000e+00  9.98937704e-01 -1.39172315e-03 -1.19919330e-01  9.22448817e-02  1.04838604e-01  3.37504995e-02  7.25976715e-10 -5.58109076e-10 
 4.78630092e+06  4.78630092e+06  0.00000000e+00  9.98901770e-01 -1.41407366e-03 -1.25367285e-01  1.01882568e-01  1.04971506e-01  3.53372250e-02  8.32200273e-10 -6.75893259e-10 
 5.01187234e+06  5.01187234e+06  0.00000000e+00  9.98865947e-01 -1.43696791e-03 -1.30908519e-01  1.12131579e-01  1.05117217e-01  3.69981531e-02  9.52845485e-10 -8.15656328e-10 
 5.24807460e+06  5.24807460e+06  0.00000000e+00  9.98830200e-01 -1.46053193e-03 -1.36551467e-01  1.23019345e-01  1.05276969e-01  3.87366952e-02  1.08983999e-09 -9.81190604e-10 
 5.49540874e+06  5.49540874e+06  0.00000000e+00  9.98794480e-01 -1.48488802e-03 -1.42306140e-01  1.34577003e-01  1.05452114e-01  4.05564108e-02  1.24538241e-09 -1.17693156e-09 
 5.75439937e+06  5.75439937e+06  0.00000000e+00  9.98758719e-01 -1.51015264e-03 -1.48183868e-01  1.46839924e-01  1.05644132e-01  4.24610127e-02  1.42198076e-09 -1.40807118e-09 
 6.02559586e+06  6.02559586e+06  0.00000000e+00  9.98722837e-01 -1.53643442e-03 -1.54196973e-01  1.59848241e-01  1.05854647e-01  4.44543717e-02  1.62249512e-09 -1.68069214e-09 
 6.30957344e+06  6.30957344e+06  0.00000000e+00  9.98686739e-01 -1.56383240e-03 -1.60358372e-01  1.73647380e-01  1.06085436e-01  4.65405219e-02  1.85018468e-09 -2.00192661e-09 
 6.60693448e+06  6.60693448e+06  0.00000000e+00  9.98650319e-01 -1.59243433e-03 -1.66681114e-01  1.88288573e-01  1.06338449e-01  4.87236653e-02  2.10875899e-09 -2.38014425e-09 
 6.91830971e+06  6.91830971e+06  0.00000000e+00  9.98613457e-01 -1.62231522e-03 -1.73177833e-01  2.03829369e-01  1.06615821e-01  5.10081765e-02  2.40243295e-09 -2.82517450e-09 
 7.24435960e+06  7.24435960e+06  0.00000000e+00  9.98576029e-01 -1.65353602e-03 -1.79860126e-01  2.20334123e-01  1.06919890e-01  5.33986074e-02  2.73598499e-09 -3.34856940e-09 
 7.58577575e+06  7.58577575e+06  0.00000000e+00  9.98537898e-01 -1.68614243e-03 -1.86737840e-01  2.37874468e-01  1.07253221e-01  5.58996905e-02  3.11481694e-09 -3.96391416e-09 
 7.94328235e+06  7.94328235e+06  0.00000000e+00  9.98498925e-01 -1.72016392e-03 -1.93818268e-01  2.56529750e-01  1.07618620e-01  5.85163432e-02  3.54501404e-09 -4.68719350e-09 
 8.31763771e+06  8.31763771e+06  0.00000000e+00  9.98458966e-01 -1.75561289e-03 -2.01105242e-01  2.76387435e-01  1.08019162e-01  6.12536703e-02  4.03340214e-09 -5.53722355e-09 
 8.70963590e+06  8.70963590e+06  0.00000000e+00  9.98417875e-01 -1.79248399e-03 -2.08598119e-01  2.97543449e-01  1.08458215e-01  6.41169662e-02  4.58759865e-09 -6.53616009e-09 
 9.12010839e+06  9.12010839e+06  0.00000000e+00  9.98375506e-01 -1.83075365e-03 -2.16290658e-01  3.20102465e-01  1.08939467e-01  6.71117170e-02  5.21605191e-09 -7.71009570e-09 
 9.54992586e+06  9.54992586e+06  0.00000000e+00  9.98331718e-01 -1.87037975e-03 -2.24169774e-01  3.44178097e-01  1.09466956e-01  7.02435998e-02  5.92806250e-09 -9.08975972e-09 
 1.00000000e+07  1.00000000e+07  0.00000000e+00  9.98286371e-01 -1.91130160e-03 -2.32214174e-01  3.69892987e-01  1.10045102e-01  7.35184829e-02  6.73377763e-09 -1.07113372e-08 
 1.04712855e+07  1.04712855e+07  0.00000000e+00  9.98239337e-01 -1.95344009e-03 -2.40392877e-01  3.97378765e-01  1.10678744e-01  7.69424225e-02  7.64414738e-09 -1.26174240e-08 
 1.09647820e+07  1.09647820e+07  0.00000000e+00  9.98190496e-01 -1.99669821e-03 -2.48663615e-01  4.26775853e-01  1.11373176e-01  8.05216589e-02  8.67082849e-09 -1.48581383e-08 
 1.14815362e+07  1.14815362e+07  0.00000000e+00  9.98139740e-01 -2.04096184e-03 -2.56971138e-01  4.58233084e-01  1.12134193e-01  8.42626101e-02  9.82601794e-09 -1.74924092e-08 
 1.20226443e+07  1.20226443e+07  0.00000000e+00  9.98086979e-01 -2.08610092e-03 -2.65245423e-01  4.91907113e-01  1.12968130e-01  8.81718630e-02  1.11221943e-08 -2.05894656e-08 
 1.25892541e+07  1.25892541e+07  0.00000000e+00  9.98032139e-01 -2.13197110e-03 -2.73399822e-01  5.27961587e-01  1.13881918e-01  9.22561616e-02  1.25717397e-08 -2.42305511e-08 
 1.31825674e+07  1.31825674e+07  0.00000000e+00  9.97975169e-01 -2.17841572e-03 -2.81329169e-01  5.66566057e-01  1.14883134e-01  9.65223914e-02  1.41864102e-08 -2.85108902e-08 
 1.38038426e+07  1.38038426e+07  0.00000000e+00  9.97916039e-01 -2.22526835e-03 -2.88907883e-01  6.07894603e-01  1.15980059e-01  1.00977561e-01  1.59766143e-08 -3.35419336e-08 
 1.44543977e+07  1.44543977e+07  0.00000000e+00  9.97854746e-01 -2.27235576e-03 -2.95988101e-01  6.52124161e-01  1.17181740e-01  1.05628776e-01  1.79504551e-08 -3.94539119e-08 
 1.51356125e+07  1.51356125e+07  0.00000000e+00  9.97791315e-01 -2.31950133e-03 -3.02397900e-01  6.99432547e-01  1.18498058e-01  1.10483214e-01  2.01124780e-08 -4.63987249e-08 
 1.58489319e+07  1.58489319e+07  0.00000000e+00  9.97725798e-01 -2.36652894e-03 -3.07939625e-01  7.49996166e-01  1.19939799e-01  1.15548083e-01  2.24620624e-08 -5.45531978e-08 
 1.65958691e+07  1.65958691e+07  0.00000000e+00  9.97658278e-01 -2.41326718e-03 -3.12388406e-01  8.03987436e-01  1.21518733e-01  1.20830583e-01  2.49913797e-08 -6.41227302e-08 
 1.73780083e+07  1.73780083e+07  0.00000000e+00  9.97588867e-01 -2.45955385e-03 -3.15490872e-01  8.61571918e-01  1.23247696e-01  1.26337852e-01  2.76828306e-08 -7.53453661e-08 
 1.81970086e+07  1.81970086e+07  0.00000000e+00  9.97517707e-01 -2.50524069e-03 -3.16964129e-01  9.22905210e-01  1.25140677e-01  1.32076907e-01  3.05058611e-08 -8.84963103e-08 
 1.90546072e+07  1.90546072e+07  0.00000000e+00  9.97444968e-01 -2.55019805e-03 -3.16495016e-01  9.88129613e-01  1.27212915e-01  1.38054568e-01  3.34130368e-08 -1.03892911e-07 
 1.99526231e+07  1.99526231e+07  0.00000000e+00  9.97370846e-01 -2.59431957e-03 -3.13739667e-01  1.05737063e+00  1.29480994e-01  1.44277376e-01  3.63352423e-08 -1.21900129e-07 
 2.08929613e+07  2.08929613e+07  0.00000000e+00  9.97295561e-01 -2.63752652e-03 -3.08323385e-01  1.13073332e+00  1.31962950e-01  1.50751490e-01  3.91758459e-08 -1.42936494e-07 
 2.18776162e+07  2.18776162e+07  0.00000000e+00  9.97219350e-01 -2.67977174e-03 -2.99840823e-01  1.20829858e+00  1.34678381e-01  1.57482575e-01  4.18036494e-08 -1.67480567e-07 
 2.29086765e+07  2.29086765e+07  0.00000000e+00  9.97142468e-01 -2.72104298e-03 -2.87856463e-01  1.29011932e+00  1.37648556e-01  1.64475657e-01  4.40444095e-08 -1.96077877e-07 
 2.39883292e+07  2.39883292e+07  0.00000000e+00  9.97065178e-01 -2.76136557e-03 -2.71905356e-01  1.37621667e+00  1.40896538e-01  1.71734974e-01  4.56706892e-08 -2.29348320e-07 
 2.51188643e+07  2.51188643e+07  0.00000000e+00  9.96987751e-01 -2.80080422e-03 -2.51494093e-01  1.46657603e+00  1.44447293e-01  1.79263786e-01  4.63897556e-08 -2.67993949e-07 
 2.63026799e+07  2.63026799e+07  0.00000000e+00  9.96910455e-01 -2.83946394e-03 -2.26101988e-01  1.56114320e+00  1.48327819e-01  1.87064166e-01  4.58291982e-08 -3.12807091e-07 
 2.75422870e+07  2.75422870e+07  0.00000000e+00  9.96833550e-01 -2.87749007e-03 -1.95182415e-01  1.65982033e+00  1.52567252e-01  1.95136755e-01  4.35198942e-08 -3.64678644e-07 
 2.88403150e+07  2.88403150e+07  0.00000000e+00  9.96757289e-01 -2.91506732e-03 -1.58164312e-01  1.76246173e+00  1.57196984e-01  2.03480485e-01  3.88758935e-08 -4.24606379e-07 
 3.01995172e+07  3.01995172e+07  0.00000000e+00  9.96681903e-01 -2.95241797e-03 -1.14453829e-01  1.86886950e+00  1.62250762e-01  2.12092254e-01  3.11707387e-08 -4.93702971e-07 
 3.16227766e+07  3.16227766e+07  0.00000000e+00  9.96607604e-01 -2.98979930e-03 -6.34361714e-02  1.97878878e+00  1.67764771e-01  2.20966565e-01  1.95096769e-08 -5.73203421e-07 
 3.31131121e+07  3.31131121e+07  0.00000000e+00  9.96534575e-01 -3.02750033e-03 -4.47768609e-03  2.09190263e+00  1.73777710e-01  2.30095113e-01  2.79716540e-09 -6.64471358e-07 
 3.46736850e+07  3.46736850e+07  0.00000000e+00  9.96462970e-01 -3.06583802e-03  6.30716993e-02  2.20782630e+00  1.80330819e-01  2.39466309e-01 -2.03009827e-08 -7.69003595e-07 
 3.63078055e+07  3.63078055e+07  0.00000000e+00  9.96392911e-01 -3.10515310e-03  1.39875530e-01  2.32610093e+00  1.87467891e-01  2.49064761e-01 -5.14015009e-08 -8.88432099e-07 
 3.80189396e+07  3.80189396e+07  0.00000000e+00  9.96324483e-01 -3.14580560e-03  2.26607175e-01  2.44618648e+00  1.95235212e-01  2.58870675e-01 -9.24543294e-08 -1.02452228e-06 
 3.98107171e+07  3.98107171e+07  0.00000000e+00  9.96257732e-01 -3.18817028e-03  3.23945216e-01  2.56745387e+00  2.03681456e-01  2.68859200e-01 -1.45800724e-07 -1.17916626e-06 
 4.16869383e+07  4.16869383e+07  0.00000000e+00  9.96192668e-01 -3.23263213e-03  4.32567576e-01  2.68917628e+00  2.12857486e-01  2.78999705e-01 -2.14239443e-07 -1.35436933e-06 
 4.36515832e+07  4.36515832e+07  0.00000000e+00  9.96129261e-01 -3.27958178e-03  5.53144007e-01  2.81051970e+00  2.22816060e-01  2.89254973e-01 -3.01101504e-07 -1.55222762e-06 
 4.57088190e+07  4.57088190e+07  0.00000000e+00  9.96067443e-01 -3.32941117e-03  6.86326541e-01  2.93053284e+00  2.33611410e-01  2.99580347e-01 -4.10333771e-07 -1.77489416e-06 
 4.78630092e+07  4.78630092e+07  0.00000000e+00  9.96007105e-01 -3.38250937e-03  8.32737437e-01  3.04813647e+00  2.45298666e-01  3.09922805e-01 -5.46591278e-07 -2.02453045e-06 
 5.01187234e+07  5.01187234e+07  0.00000000e+00  9.95948103e-01 -3.43925843e-03  9.92954126e-01  3.16211271e+00  2.57933103e-01  3.20219989e-01 -7.15337657e-07 -2.30323976e-06 
 5.24807460e+07  5.24807460e+07  0.00000000e+00  9.95890254e-01 -3.50002942e-03  1.16749064e+00  3.27109463e+00  2.71569157e-01  3.30399209e-01 -9.22952307e-07 -2.61297789e-06 
 5.49540874e+07  5.49540874e+07  0.00000000e+00  9.95833339e-01 -3.56517851e-03  1.35677504e+00  3.37355681e+00  2.86259202e-01  3.40376447e-01 -1.17684192e-06 -2.95543672e-06 
 5.75439937e+07  5.75439937e+07  0.00000000e+00  9.95777104e-01 -3.63504292e-03  1.56112231e+00  3.46780778e+00  3.02052018e-01  3.50055403e-01 -1.48555267e-06 -3.33189529e-06 
 6.02559586e+07  6.02559586e+07  0.00000000e+00  9.95721263e-01 -3.70993681e-03  1.78070245e+00  3.55198524e+00  3.18990935e-01  3.59326644e-01 -1.85887768e-06 -3.74303289e-06 
 6.30957344e+07  6.30957344e+07  0.00000000e+00  9.95665499e-01 -3.79014691e-03  2.01550342e+00  3.62405577e+00  3.37111609e-01  3.68066911e-01 -2.30795236e-06 -4.18869894e-06 
 6.60693448e+07  6.60693448e+07  0.00000000e+00  9.95609464e-01 -3.87592781e-03  2.26528914e+00  3.68182019e+00  3.56439418e-01  3.76138702e-01 -2.84532753e-06 -4.66763490e-06 
 6.91830971e+07  6.91830971e+07  0.00000000e+00  9.95552784e-01 -3.96749697e-03  2.52955277e+00  3.72292681e+00  3.76986451e-01  3.83390220e-01 -3.48500788e-06 -5.17714463e-06 
 7.24435960e+07  7.24435960e+07  0.00000000e+00  9.95495066e-01 -4.06502935e-03  2.80746636e+00  3.74489453e+00  3.98748131e-01  3.89655830e-01 -4.24243976e-06 -5.71271233e-06 
 7.58577575e+07  7.58577575e+07  0.00000000e+00  9.95435897e-01 -4.16865183e-03  3.09782824e+00  3.74514791e+00  4.21699501e-01  3.94757179e-01 -5.13442987e-06 -6.26757036e-06 
 7.94328235e+07  7.94328235e+07  0.00000000e+00  9.95374852e-01 -4.27843753e-03  3.39901070e+00  3.72106660e+00  4.45791289e-01  3.98505131e-01 -6.17897358e-06 -6.83222443e-06 
 8.31763771e+07  8.31763771e+07  0.00000000e+00  9.95311507e-01 -4.39440037e-03  3.70891111e+00  3.67005084e+00  4.70945892e-01  4.00702692e-01 -7.39497023e-06 -7.39395027e-06 
 8.70963590e+07  8.70963590e+07  0.00000000e+00  9.95245441e-01 -4.51649035e-03  4.02491088e+00  3.58960442e+00  4.97053511e-01  4.01149060e-01 -8.80180320e-06 -7.93628420e-06 
 9.12010839e+07  9.12010839e+07  0.00000000e+00  9.95176257e-01 -4.64459001e-03  4.34384748e+00  3.47743541e+00  5.23968730e-01  3.99644915e-01 -1.04187652e-05 -8.43853923e-06 
 9.54992586e+07  9.54992586e+07  0.00000000e+00  9.95103589e-01 -4.77851293e-03  4.66200568e+00  3.33157330e+00  5.51507899e-01  3.95998978e-01 -1.22643159e-05 -8.87538871e-06 
 1.00000000e+08  1.00000000e+08  0.00000000e+00  9.95027121e-01 -4.91800496e-03  4.97513443e+00  3.15049947e+00  5.79447759e-01  3.90035766e-01 -1.43551694e-05 -9.21656841e-06 
 1.04712855e+08  1.04712855e+08  0.00000000e+00  9.94946607e-01 -5.06274905e-03  5.27849585e+00  2.93328535e+00  6.07525746e-01  3.81604331e-01 -1.67052259e-05 -9.42675493e-06 
 1.09647820e+08  1.09647820e+08  0.00000000e+00  9.94861885e-01 -5.21237458e-03  5.56695128e+00  2.67972989e+00  6.35442422e-01  3.70587607e-01 -1.93243786e-05 -9.46568012e-06 
 1.14815362e+08  1.14815362e+08  0.00000000e+00  9.94772897e-01 -5.36647159e-03  5.83508752e+00  2.39048570e+00  6.62866385e-01  3.56911800e-01 -2.22172535e-05 -9.28853601e-06 
 1.20226443e+08  1.20226443e+08  0.00000000e+00  9.94679705e-01 -5.52461027e-03  6.07738283e+00  2.06716125e+00  6.89441842e-01  3.40555081e-01 -2.53819591e-05 -8.84671058e-06 
 1.25892541e+08  1.25892541e+08  0.00000000e+00  9.94582501e-01 -5.68636547e-03  6.28840791e+00  1.71238542e+00  7.14798818e-01  3.21554761e-01 -2.88089439e-05 -8.08887047e-06 
 1.31825674e+08  1.31825674e+08  0.00000000e+00  9.94481617e-01 -5.85134531e-03  6.46305211e+00  1.32982213e+00  7.38565654e-01  3.00012026e-01 -3.24800698e-05 -6.96237304e-06 
 1.38038426e+08  1.38038426e+08  0.00000000e+00  9.94377517e-01 -6.01922251e-03  6.59676035e+00  9.24125178e-01  7.60383139e-01  2.76093454e-01 -3.63680059e-05 -5.41495120e-06 
 1.44543977e+08  1.44543977e+08  0.00000000e+00  9.94270799e-01 -6.18976634e-03  6.68576221e+00  5.00828608e-01  7.79919286e-01  2.50028699e-01 -4.04360311e-05 -3.39657447e-06 
 1.51356125e+08  1.51356125e+08  0.00000000e+00  9.94162169e-01 -6.36287286e-03  6.72727280e+00  6.61743522e-02  7.96883575e-01  2.22104085e-01 -4.46382958e-05 -8.61356902e-07 
 1.58489319e+08  1.58489319e+08  0.00000000e+00  9.94052421e-01 -6.53859089e-03  6.71964582e+00 -3.73113705e-01  8.11039352e-01  1.92652285e-01 -4.89205464e-05  2.23063634e-06 
